! P/N: L-14W68NJV4E
! Measured by Marlon B.  (Application Tech)	
! Measured on April 5, 2004
! Measured in a Series-Through Fixture
#	mhz	s	ma	r	50
0	0.00000	90.000	0.99999	0.00000	0.99999	0.00000	0.00000	90.000
50	0.21446	74.753	0.95964	-11.62	0.95964	-11.62	0.21446	74.753
70	0.28844	68.985	0.94207	-17.04	0.94207	-17.04	0.28844	68.985
90	0.35651	65.125	0.91101	-21.351	0.91101	-21.351	0.35651	65.125
110	0.42172	61.747	0.88195	-25.363	0.88195	-25.363	0.42172	61.747
130	0.48248	58.228	0.85549	-29.306	0.85549	-29.306	0.48248	58.228
150	0.53251	54.745	0.81737	-32.833	0.81737	-32.833	0.53251	54.745
170	0.5800	51.601	0.78719	-35.858	0.78719	-35.858	0.5800	51.601
190	0.62284	48.509	0.75238	-39.222	0.75238	-39.222	0.62284	48.509
210	0.65992	45.968	0.71948	-42.277	0.71948	-42.277	0.65992	45.968
230	0.69347	43.725	0.69138	-44.835	0.69138	-44.835	0.69347	43.725
250	0.72911	40.777	0.66736	-47.161	0.66736	-47.161	0.72911	40.777
270	0.74609	38.425	0.63226	-49.855	0.63226	-49.855	0.74609	38.425
290	0.76996	36.894	0.60487	-51.642	0.60487	-51.642	0.76996	36.894
310	0.79337	35.088	0.58102	-53.565	0.58102	-53.565	0.79337	35.088
330	0.81168	32.920	0.55767	-55.691	0.55767	-55.691	0.81168	32.920
350	0.8229	31.318	0.53288	-57.104	0.53288	-57.104	0.8229	31.318
370	0.84139	30.250	0.51645	-58.457	0.51645	-58.457	0.84139	30.250
390	0.85552	28.803	0.49647	-60.04	0.49647	-60.04	0.85552	28.803
410	0.8680	27.650	0.4763	-61.241	0.4763	-61.241	0.8680	27.650
430	0.87936	26.814	0.45818	-62.106	0.45818	-62.106	0.87936	26.814
450	0.88807	25.670	0.44322	-63.345	0.44322	-63.345	0.88807	25.670
470	0.89038	24.674	0.42406	-64.484	0.42406	-64.484	0.89038	24.674
490	0.9356	23.431	0.41177	-66.814	0.41177	-66.814	0.9356	23.431
510	0.95975	22.440	0.39879	-67.902	0.39879	-67.902	0.95975	22.440
530	0.94403	21.687	0.38124	-67.334	0.38124	-67.334	0.94403	21.687
550	0.91479	20.639	0.35902	-66.713	0.35902	-66.713	0.91479	20.639
570	0.90995	18.648	0.3375	-67.145	0.3375	-67.145	0.90995	18.648
590	0.90547	16.886	0.31628	-67.887	0.31628	-67.887	0.90547	16.886
610	0.91403	15.074	0.29797	-69.427	0.29797	-69.427	0.91403	15.074
630	0.93102	13.279	0.28373	-71.589	0.28373	-71.589	0.93102	13.279
650	0.93448	11.907	0.27323	-73.536	0.27323	-73.536	0.93448	11.907
670	0.94857	11.684	0.27005	-74.374	0.27005	-74.374	0.94857	11.684
690	0.96104	12.029	0.26595	-75.252	0.26595	-75.252	0.96104	12.029
710	0.96609	12.047	0.2597	-75.587	0.2597	-75.587	0.96609	12.047
730	0.96223	11.718	0.2518	-75.291	0.2518	-75.291	0.96223	11.718
750	0.95229	11.899	0.24445	-74.772	0.24445	-74.772	0.95229	11.899
770	0.94396	10.882	0.23372	-75.168	0.23372	-75.168	0.94396	10.882
790	0.93657	9.7890	0.22296	-75.724	0.22296	-75.724	0.93657	9.7890
810	0.93614	8.4320	0.21275	-76.684	0.21275	-76.684	0.93614	8.4320
830	0.9420	6.9420	0.2038	-78.13	0.2038	-78.13	0.9420	6.9420
850	0.94688	5.7750	0.19691	-79.984	0.19691	-79.984	0.94688	5.7750
870	0.96192	4.9660	0.19384	-80.91	0.19384	-80.91	0.96192	4.9660
890	0.97743	4.6260	0.19253	-81.844	0.19253	-81.844	0.97743	4.6260
910	0.98759	4.5710	0.19034	-82.374	0.19034	-82.374	0.98759	4.5710
930	0.99276	4.7610	0.18694	-82.286	0.18694	-82.286	0.99276	4.7610
950	0.99944	5.2950	0.1843	-81.566	0.1843	-81.566	0.99944	5.2950
970	0.99999	5.4310	0.1792	-81.183	0.1792	-81.183	0.99999	5.4310
990	0.9961	5.3390	0.17246	-81.00	0.17246	-81.00	0.9961	5.3390
1010	0.99218	5.0790	0.16564	-81.085	0.16564	-81.085	0.99218	5.0790
1030	0.99167	4.7550	0.15933	-81.462	0.15933	-81.462	0.99167	4.7550
1050	0.99123	4.5130	0.15312	-82.104	0.15312	-82.104	0.99123	4.5130
1070	0.99372	4.1300	0.14918	-82.957	0.14918	-82.957	0.99372	4.1300
1090	0.99498	3.7900	0.14623	-83.638	0.14623	-83.638	0.99498	3.7900
1110	0.99423	3.6540	0.1435	-83.926	0.1435	-83.926	0.99423	3.6540
1130	0.99219	3.7180	0.14058	-83.783	0.14058	-83.783	0.99219	3.7180
1150	0.99104	3.8240	0.13739	-83.351	0.13739	-83.351	0.99104	3.8240
1170	0.99046	3.6110	0.13264	-82.686	0.13264	-82.686	0.99046	3.6110
1190	0.98918	3.3520	0.12772	-82.336	0.12772	-82.336	0.98918	3.3520
1210	0.98579	2.8610	0.12212	-82.31	0.12212	-82.31	0.98579	2.8610
1230	0.98086	2.3260	0.11622	-82.558	0.11622	-82.558	0.98086	2.3260
1250	0.97699	2.3090	0.11132	-82.967	0.11132	-82.967	0.97699	2.3090
1270	0.98674	1.7880	0.10817	-84.035	0.10817	-84.035	0.98674	1.7880
1290	0.98584	1.1220	0.10436	-85.004	0.10436	-85.004	0.98584	1.1220
1310	0.98389	0.8980	0.10115	-85.449	0.10115	-85.449	0.98389	0.8980
1330	0.98511	0.9590	0.09881	-85.519	0.09881	-85.519	0.98511	0.9590
1350	0.98831	0.4030	0.09665	-85.944	0.09665	-85.944	0.98831	0.4030
1370	0.98424	0.1860	0.09261	-85.439	0.09261	-85.439	0.98424	0.1860
1390	0.98706	0.0610	0.08934	-85.249	0.08934	-85.249	0.98706	0.0610
1410	0.99002	-0.251	0.08594	-85.446	0.08594	-85.446	0.99002	-0.251
1430	0.99077	-0.652	0.08214	-85.861	0.08214	-85.861	0.99077	-0.652
1450	0.99146	-0.660	0.07838	-86.084	0.07838	-86.084	0.99146	-0.660
1470	0.99667	-0.987	0.07588	-86.748	0.07588	-86.748	0.99667	-0.987
1490	0.99999	-1.300	0.07302	-87.62	0.07302	-87.62	0.99999	-1.300
1510	0.99999	-1.279	0.0705	-87.925	0.0705	-87.925	0.99999	-1.279
1530	0.99968	-1.015	0.06846	-87.72	0.06846	-87.72	0.99968	-1.015
1550	0.99999	-1.011	0.0665	-87.883	0.0665	-87.883	0.99999	-1.011
1570	0.99999	-1.359	0.06379	-87.723	0.06379	-87.723	0.99999	-1.359
1590	0.99882	-1.423	0.06088	-87.382	0.06088	-87.382	0.99882	-1.423
1610	0.99985	-1.426	0.05786	-86.973	0.05786	-86.973	0.99985	-1.426
1630	0.99999	-1.519	0.05489	-86.797	0.05489	-86.797	0.99999	-1.519
1650	0.99999	-1.785	0.05226	-87.345	0.05226	-87.345	0.99999	-1.785
1670	0.99999	-2.145	0.04925	-87.944	0.04925	-87.944	0.99999	-2.145
1690	0.99926	-1.929	0.04684	-88.123	0.04684	-88.123	0.99926	-1.929
1710	0.99999	-1.828	0.04462	-88.16	0.04462	-88.16	0.99999	-1.828
1730	0.99999	-2.066	0.04244	-88.141	0.04244	-88.141	0.99999	-2.066
1750	0.99999	-2.402	0.04033	-87.959	0.04033	-87.959	0.99999	-2.402
1770	0.99999	-2.194	0.03811	-87.279	0.03811	-87.279	0.99999	-2.194
1790	0.99999	-2.387	0.03563	-86.838	0.03563	-86.838	0.99999	-2.387
1810	0.99907	-2.636	0.03302	-86.467	0.03302	-86.467	0.99907	-2.636
1830	0.99632	-2.816	0.03042	-86.066	0.03042	-86.066	0.99632	-2.816
1850	0.99724	-3.024	0.0280	-85.607	0.0280	-85.607	0.99724	-3.024
1870	0.99839	-3.489	0.02556	-85.992	0.02556	-85.992	0.99839	-3.489
1890	0.99473	-3.474	0.02319	-85.726	0.02319	-85.726	0.99473	-3.474
1910	0.99849	-3.256	0.02099	-85.154	0.02099	-85.154	0.99849	-3.256
1930	0.99999	-3.276	0.01895	-84.395	0.01895	-84.395	0.99999	-3.276
1950	0.99999	-4.137	0.01687	-83.351	0.01687	-83.351	0.99999	-4.137
1970	0.99999	-3.814	0.01469	-81.791	0.01469	-81.791	0.99999	-3.814
1990	0.99486	-3.631	0.01245	-79.211	0.01245	-79.211	0.99486	-3.631
2010	0.99751	-3.640	0.01023	-75.906	0.01023	-75.906	0.99751	-3.640
2030	0.99999	-3.859	0.00811	-71.552	0.00811	-71.552	0.99999	-3.859
2050	0.99999	-4.263	0.00613	-65.206	0.00613	-65.206	0.99999	-4.263
2070	0.99731	-4.261	0.00432	-51.071	0.00432	-51.071	0.99731	-4.261
2090	0.9991	-4.204	0.0033	-23.59	0.0033	-23.59	0.9991	-4.204
2110	0.99999	-4.384	0.00324	9.4260	0.00324	9.4260	0.99999	-4.384
2130	0.99999	-4.653	0.00411	38.963	0.00411	38.963	0.99999	-4.653
2150	0.99754	-4.422	0.0057	54.811	0.0057	54.811	0.99754	-4.422
2170	0.99999	-4.552	0.00774	62.386	0.00774	62.386	0.99999	-4.552
2190	0.99999	-4.925	0.00963	66.856	0.00963	66.856	0.99999	-4.925
2210	0.99999	-5.044	0.01157	70.100	0.01157	70.100	0.99999	-5.044
2230	0.99999	-4.973	0.01358	72.479	0.01358	72.479	0.99999	-4.973
2250	0.99999	-5.347	0.01553	72.842	0.01553	72.842	0.99999	-5.347
2270	0.99999	-5.455	0.01733	74.263	0.01733	74.263	0.99999	-5.455
2290	0.99999	-5.298	0.0193	74.990	0.0193	74.990	0.99999	-5.298
2310	0.99999	-5.497	0.02133	75.155	0.02133	75.155	0.99999	-5.497
2330	0.99999	-5.967	0.02335	75.165	0.02335	75.165	0.99999	-5.967
2350	0.99793	-5.915	0.02532	75.707	0.02532	75.707	0.99793	-5.915
2370	0.99999	-5.439	0.02755	76.457	0.02755	76.457	0.99999	-5.439
2390	0.99999	-5.605	0.02966	76.769	0.02966	76.769	0.99999	-5.605
2410	0.99999	-5.851	0.03152	76.869	0.03152	76.869	0.99999	-5.851
2430	0.99999	-5.860	0.03322	77.103	0.03322	77.103	0.99999	-5.860
2450	0.99916	-5.567	0.03508	77.934	0.03508	77.934	0.99916	-5.567
2470	0.99999	-6.035	0.03689	77.841	0.03689	77.841	0.99999	-6.035
2490	0.99999	-6.223	0.03863	77.478	0.03863	77.478	0.99999	-6.223
2510	0.99999	-6.348	0.04039	77.419	0.04039	77.419	0.99999	-6.348
2530	0.99999	-6.504	0.04231	77.617	0.04231	77.617	0.99999	-6.504
2550	0.99999	-6.665	0.04457	77.401	0.04457	77.401	0.99999	-6.665
2570	0.99969	-6.649	0.04644	77.653	0.04644	77.653	0.99969	-6.649
2590	0.99931	-6.704	0.04835	77.985	0.04835	77.985	0.99931	-6.704
2610	0.9985	-6.831	0.05035	78.182	0.05035	78.182	0.9985	-6.831
2630	0.99588	-7.009	0.05224	78.239	0.05224	78.239	0.99588	-7.009
2650	0.9920	-7.193	0.05362	78.363	0.05362	78.363	0.9920	-7.193
2670	0.99609	-7.197	0.05522	78.651	0.05522	78.651	0.99609	-7.197
2690	0.99999	-7.554	0.05702	78.241	0.05702	78.241	0.99999	-7.554
2710	0.99999	-7.825	0.05878	77.855	0.05878	77.855	0.99999	-7.825
2730	0.99806	-7.864	0.06049	77.624	0.06049	77.624	0.99806	-7.864
2750	0.99999	-7.815	0.06244	77.086	0.06244	77.086	0.99999	-7.815
2770	0.99884	-7.883	0.06421	77.122	0.06421	77.122	0.99884	-7.883
2790	0.99702	-8.040	0.06625	77.217	0.06625	77.217	0.99702	-8.040
2810	0.99662	-8.087	0.06837	77.314	0.06837	77.314	0.99662	-8.087
2830	0.99644	-8.088	0.07031	77.359	0.07031	77.359	0.99644	-8.088
2850	0.99299	-8.367	0.07173	77.294	0.07173	77.294	0.99299	-8.367
2870	0.99634	-8.326	0.07347	77.154	0.07347	77.154	0.99634	-8.326
2890	0.99882	-8.752	0.07527	76.800	0.07527	76.800	0.99882	-8.752
2910	0.99941	-8.882	0.07732	76.543	0.07732	76.543	0.99941	-8.882
2930	0.99803	-8.668	0.07944	76.349	0.07944	76.349	0.99803	-8.668
2950	0.99558	-8.777	0.08107	75.847	0.08107	75.847	0.99558	-8.777
2970	0.99583	-8.944	0.08327	75.633	0.08327	75.633	0.99583	-8.944
2990	0.99493	-9.384	0.0852	75.647	0.0852	75.647	0.99493	-9.384
3010	0.99269	-9.568	0.08676	75.733	0.08676	75.733	0.99269	-9.568
3030	0.99193	-9.443	0.08824	75.893	0.08824	75.893	0.99193	-9.443
3050	0.99848	-9.429	0.09034	76.282	0.09034	76.282	0.99848	-9.429
3070	0.99798	-10.256	0.09224	76.053	0.09224	76.053	0.99798	-10.256
3090	0.99139	-10.131	0.09355	75.762	0.09355	75.762	0.99139	-10.131
3110	0.99052	-9.850	0.0948	75.510	0.0948	75.510	0.99052	-9.850
3130	0.99699	-9.782	0.09643	75.267	0.09643	75.267	0.99699	-9.782
3150	0.99999	-9.864	0.09879	74.878	0.09879	74.878	0.99999	-9.864
3170	0.99405	-10.324	0.10021	74.707	0.10021	74.707	0.99405	-10.324
3190	0.99225	-10.446	0.10186	74.746	0.10186	74.746	0.99225	-10.446
3210	0.99071	-10.641	0.10382	74.684	0.10382	74.684	0.99071	-10.641
3230	0.98863	-10.895	0.10575	74.517	0.10575	74.517	0.98863	-10.895
3250	0.99052	-10.768	0.10683	74.539	0.10683	74.539	0.99052	-10.768
3270	0.99442	-11.327	0.10823	74.385	0.10823	74.385	0.99442	-11.327
3290	0.99022	-11.558	0.10959	74.246	0.10959	74.246	0.99022	-11.558
3310	0.9871	-11.432	0.11105	74.110	0.11105	74.110	0.9871	-11.432
3330	0.99003	-11.25	0.1129	73.901	0.1129	73.901	0.99003	-11.25
3350	0.99985	-11.643	0.11554	73.474	0.11554	73.474	0.99985	-11.643
3370	0.98637	-12.218	0.11661	73.379	0.11661	73.379	0.98637	-12.218
3390	0.98393	-12.029	0.11764	73.559	0.11764	73.559	0.98393	-12.029
3410	0.98437	-11.78	0.11961	73.710	0.11961	73.710	0.98437	-11.78
3430	0.9854	-12.084	0.12208	73.563	0.12208	73.563	0.9854	-12.084
3450	0.99052	-13.466	0.12319	72.884	0.12319	72.884	0.99052	-13.466
3470	0.97897	-13.14	0.12345	72.838	0.12345	72.838	0.97897	-13.14
3490	0.98084	-12.802	0.12532	73.017	0.12532	73.017	0.98084	-12.802
3510	0.98543	-13.028	0.12757	72.795	0.12757	72.795	0.98543	-13.028
3530	0.98561	-13.654	0.12933	72.215	0.12933	72.215	0.98561	-13.654
3550	0.9779	-13.777	0.13014	71.990	0.13014	71.990	0.9779	-13.777
3570	0.98526	-13.381	0.13253	72.285	0.13253	72.285	0.98526	-13.381
3590	0.98209	-13.654	0.13459	71.813	0.13459	71.813	0.98209	-13.654
3610	0.97939	-14.057	0.13601	71.670	0.13601	71.670	0.97939	-14.057
3630	0.98163	-14.301	0.13733	71.954	0.13733	71.954	0.98163	-14.301
3650	0.9867	-14.353	0.13993	71.756	0.13993	71.756	0.9867	-14.353
3670	0.9798	-14.751	0.14029	71.607	0.14029	71.607	0.9798	-14.751
3690	0.97667	-14.499	0.14158	72.034	0.14158	72.034	0.97667	-14.499
3710	0.97939	-14.597	0.14342	71.970	0.14342	71.970	0.97939	-14.597
3730	0.9827	-15.228	0.14515	71.310	0.14515	71.310	0.9827	-15.228
3750	0.97398	-15.757	0.14579	70.909	0.14579	70.909	0.97398	-15.757
3770	0.97345	-15.641	0.14713	71.181	0.14713	71.181	0.97345	-15.641
3790	0.97441	-15.748	0.14911	71.065	0.14911	71.065	0.97441	-15.748
3810	0.97332	-16.093	0.15072	70.926	0.15072	70.926	0.97332	-16.093
3830	0.97067	-16.565	0.15181	70.880	0.15181	70.880	0.97067	-16.565
3850	0.97095	-16.932	0.15315	70.795	0.15315	70.795	0.97095	-16.932
3870	0.96795	-16.654	0.15384	70.969	0.15384	70.969	0.96795	-16.654
3890	0.96863	-17.086	0.15484	71.113	0.15484	71.113	0.96863	-17.086
3910	0.96563	-17.736	0.15574	70.955	0.15574	70.955	0.96563	-17.736
3930	0.95749	-18.211	0.15617	70.751	0.15617	70.751	0.95749	-18.211
3950	0.94866	-18.227	0.15579	71.279	0.15579	71.279	0.94866	-18.227
3970	0.94514	-18.41	0.15706	71.821	0.15706	71.821	0.94514	-18.41
3990	0.93565	-18.952	0.15694	72.052	0.15694	72.052	0.93565	-18.952
4010	0.91906	-19.385	0.15761	72.612	0.15761	72.612	0.91906	-19.385
4030	0.89892	-19.377	0.15963	73.693	0.15963	73.693	0.89892	-19.377
4050	0.88349	-18.736	0.16199	75.029	0.16199	75.029	0.88349	-18.736
4070	0.87332	-17.661	0.16628	76.343	0.16628	76.343	0.87332	-17.661
4090	0.87015	-16.689	0.17343	76.839	0.17343	76.839	0.87015	-16.689
4110	0.87224	-15.66	0.18048	76.628	0.18048	76.628	0.87224	-15.66
4130	0.87891	-14.57	0.18633	76.023	0.18633	76.023	0.87891	-14.57
4150	0.89053	-13.572	0.19173	75.542	0.19173	75.542	0.89053	-13.572
4170	0.9103	-14.001	0.19755	74.230	0.19755	74.230	0.9103	-14.001
4190	0.9198	-14.181	0.20015	73.069	0.20015	73.069	0.9198	-14.181
4210	0.92785	-14.145	0.20227	72.327	0.20227	72.327	0.92785	-14.145
4230	0.93623	-14.219	0.20448	71.859	0.20448	71.859	0.93623	-14.219
4250	0.93972	-15.018	0.20513	71.103	0.20513	71.103	0.93972	-15.018
4270	0.94175	-15.325	0.20799	70.680	0.20799	70.680	0.94175	-15.325
4290	0.94978	-15.632	0.21068	70.205	0.21068	70.205	0.94978	-15.632
4310	0.95296	-15.829	0.21255	69.717	0.21255	69.717	0.95296	-15.829
4330	0.95052	-15.929	0.21367	69.365	0.21367	69.365	0.95052	-15.929
4350	0.95177	-16.07	0.21485	69.413	0.21485	69.413	0.95177	-16.07
4370	0.95928	-16.567	0.2172	68.956	0.2172	68.956	0.95928	-16.567
4390	0.9606	-16.832	0.21885	68.507	0.21885	68.507	0.9606	-16.832
4410	0.95913	-17.095	0.22073	68.118	0.22073	68.118	0.95913	-17.095
4430	0.95701	-17.346	0.22273	67.783	0.22273	67.783	0.95701	-17.346
4450	0.95513	-17.33	0.22366	67.438	0.22366	67.438	0.95513	-17.33
4470	0.95706	-17.337	0.22647	67.392	0.22647	67.392	0.95706	-17.337
4490	0.96181	-17.871	0.22841	66.749	0.22841	66.749	0.96181	-17.871
4510	0.95881	-17.999	0.22971	66.573	0.22971	66.573	0.95881	-17.999
4530	0.95303	-17.716	0.23154	66.972	0.23154	66.972	0.95303	-17.716
4550	0.96499	-17.942	0.23605	67.086	0.23605	67.086	0.96499	-17.942
4570	0.9589	-18.78	0.23705	66.055	0.23705	66.055	0.9589	-18.78
4590	0.94767	-18.883	0.23584	65.936	0.23584	65.936	0.94767	-18.883
4610	0.94777	-18.70	0.23784	65.925	0.23784	65.925	0.94777	-18.70
4630	0.95698	-18.735	0.24258	65.572	0.24258	65.572	0.95698	-18.735
4650	0.9544	-19.544	0.24363	64.793	0.24363	64.793	0.9544	-19.544
4670	0.95153	-19.58	0.24469	64.783	0.24469	64.783	0.95153	-19.58
4690	0.95362	-19.708	0.24713	64.599	0.24713	64.599	0.95362	-19.708
4710	0.95417	-19.827	0.24939	64.308	0.24939	64.308	0.95417	-19.827
4730	0.95218	-19.92	0.25124	64.012	0.25124	64.012	0.95218	-19.92
4750	0.95221	-20.049	0.25381	63.849	0.25381	63.849	0.95221	-20.049
4770	0.95257	-20.287	0.25681	63.623	0.25681	63.623	0.95257	-20.287
4790	0.94442	-20.542	0.25783	63.479	0.25783	63.479	0.94442	-20.542
4810	0.9439	-20.831	0.25962	63.156	0.25962	63.156	0.9439	-20.831
4830	0.94991	-21.122	0.26254	62.755	0.26254	62.755	0.94991	-21.122
4850	0.94409	-21.325	0.2646	62.735	0.2646	62.735	0.94409	-21.325
4870	0.95103	-21.405	0.26877	62.265	0.26877	62.265	0.95103	-21.405
4890	0.94652	-21.706	0.27043	61.780	0.27043	61.780	0.94652	-21.706
4910	0.94617	-21.706	0.2726	61.920	0.2726	61.920	0.94617	-21.706
4930	0.95226	-21.595	0.27605	62.203	0.27605	62.203	0.95226	-21.595
4950	0.95372	-22.271	0.27925	61.023	0.27925	61.023	0.95372	-22.271
4970	0.93672	-22.739	0.27811	60.743	0.27811	60.743	0.93672	-22.739
4990	0.9410	-22.356	0.28098	61.170	0.28098	61.170	0.9410	-22.356
5010	0.94748	-22.493	0.28502	60.966	0.28502	60.966	0.94748	-22.493
5030	0.94517	-23.171	0.28782	60.142	0.28782	60.142	0.94517	-23.171
5050	0.93119	-23.056	0.2874	60.058	0.2874	60.058	0.93119	-23.056
5070	0.93478	-22.617	0.29257	60.281	0.29257	60.281	0.93478	-22.617
5090	0.94053	-22.997	0.2963	59.920	0.2963	59.920	0.94053	-22.997
5110	0.93727	-23.533	0.29805	59.417	0.29805	59.417	0.93727	-23.533
5130	0.92694	-23.784	0.29895	59.112	0.29895	59.112	0.92694	-23.784
5150	0.92455	-23.532	0.30185	59.241	0.30185	59.241	0.92455	-23.532
5170	0.93731	-23.874	0.30731	58.908	0.30731	58.908	0.93731	-23.874
5190	0.93038	-24.703	0.30875	58.029	0.30875	58.029	0.93038	-24.703
5210	0.92451	-24.93	0.30984	57.629	0.30984	57.629	0.92451	-24.93
5230	0.92806	-24.512	0.3129	57.829	0.3129	57.829	0.92806	-24.512
5250	0.93693	-24.46	0.31896	57.849	0.31896	57.849	0.93693	-24.46
5270	0.9230	-25.466	0.31981	56.496	0.31981	56.496	0.9230	-25.466
5290	0.91606	-25.256	0.32054	56.465	0.32054	56.465	0.91606	-25.256
5310	0.91908	-24.98	0.32442	56.591	0.32442	56.591	0.91908	-24.98
5330	0.92538	-25.43	0.33026	56.194	0.33026	56.194	0.92538	-25.43
5350	0.91859	-27.036	0.33241	55.072	0.33241	55.072	0.91859	-27.036
5370	0.90382	-26.567	0.33195	55.186	0.33195	55.186	0.90382	-26.567
5390	0.91186	-26.828	0.3367	54.916	0.3367	54.916	0.91186	-26.828
5410	0.91751	-27.231	0.34171	54.478	0.34171	54.478	0.91751	-27.231
5430	0.91291	-27.369	0.34487	54.102	0.34487	54.102	0.91291	-27.369
5450	0.90748	-27.013	0.34683	54.039	0.34683	54.039	0.90748	-27.013
5470	0.90618	-27.46	0.35123	53.458	0.35123	53.458	0.90618	-27.46
5490	0.90086	-27.896	0.35377	52.788	0.35377	52.788	0.90086	-27.896
5510	0.89662	-28.092	0.35846	52.445	0.35846	52.445	0.89662	-28.092
5530	0.89378	-28.24	0.36441	52.223	0.36441	52.223	0.89378	-28.24
5550	0.8879	-28.954	0.36583	51.292	0.36583	51.292	0.8879	-28.954
5570	0.87797	-29.513	0.3676	51.374	0.3676	51.374	0.87797	-29.513
5590	0.87997	-29.669	0.37471	50.893	0.37471	50.893	0.87997	-29.669
5610	0.88287	-29.952	0.38053	50.161	0.38053	50.161	0.88287	-29.952
5630	0.88086	-30.472	0.38341	49.463	0.38341	49.463	0.88086	-30.472
5650	0.87335	-30.92	0.3867	49.054	0.3867	49.054	0.87335	-30.92
5670	0.87306	-30.931	0.39098	48.618	0.39098	48.618	0.87306	-30.931
5690	0.87322	-31.176	0.39744	48.017	0.39744	48.017	0.87322	-31.176
5710	0.8679	-31.488	0.40264	47.335	0.40264	47.335	0.8679	-31.488
5730	0.85728	-31.871	0.40482	46.680	0.40482	46.680	0.85728	-31.871
5750	0.84769	-32.503	0.4039	46.185	0.4039	46.185	0.84769	-32.503
5770	0.84558	-32.479	0.41465	45.853	0.41465	45.853	0.84558	-32.479
5790	0.84299	-32.985	0.42249	45.052	0.42249	45.052	0.84299	-32.985
5810	0.83689	-33.649	0.42715	44.082	0.42715	44.082	0.83689	-33.649
5830	0.82699	-34.133	0.42991	43.271	0.42991	43.271	0.82699	-34.133
5850	0.81584	-34.142	0.43354	42.975	0.43354	42.975	0.81584	-34.142
5870	0.81706	-34.455	0.44355	41.917	0.44355	41.917	0.81706	-34.455
5890	0.81237	-35.242	0.44974	40.668	0.44974	40.668	0.81237	-35.242
5910	0.80117	-35.902	0.45451	39.552	0.45451	39.552	0.80117	-35.902
5930	0.78782	-36.187	0.45973	38.646	0.45973	38.646	0.78782	-36.187
