!251R15S470JV4S  Sept, 2006
#	mhz	s	ma	r	50			
50	0.55834	-56.542	0.84479	33.454	0.84479	33.454	0.55834	-56.542
100	0.31622	-71.249	0.95874	18.515	0.95874	18.515	0.31622	-71.249
150	0.21625	-77.874	0.97952	12.166	0.97952	12.166	0.21625	-77.874
200	0.16388	-81.438	0.98611	8.945	0.98611	8.945	0.16388	-81.438
250	0.13162	-84.078	0.99359	6.873	0.99359	6.873	0.13162	-84.078
300	0.11257	-85.588	0.99604	5.464	0.99604	5.464	0.11257	-85.588
350	0.10015	-86.742	0.9995	4.241	0.9995	4.241	0.10015	-86.742
400	0.08962	-85.004	0.99815	3.33	0.99815	3.33	0.08962	-85.004
450	0.07486	-82.752	0.99948	2.646	0.99948	2.646	0.07486	-82.752
500	0.06661	-80.434	0.99824	2.211	0.99824	2.211	0.06661	-80.434
550	0.05954	-89.488	1.00442	1.713	1.00442	1.713	0.05954	-89.488
600	0.06345	-93.053	1.00254	1.5	1.00254	1.5	0.06345	-93.053
650	0.06166	-86.38	0.99848	1.103	0.99848	1.103	0.06166	-86.38
700	0.05329	-83.475	0.99839	0.809	0.99839	0.809	0.05329	-83.475
750	0.04625	-89.643	0.99963	0.017	0.99963	0.017	0.04625	-89.643
800	0.04727	-94.886	1.0019	-0.227	1.0019	-0.227	0.04727	-94.886
850	0.04874	-89.28	1.00086	-0.255	1.00086	-0.255	0.04874	-89.28
900	0.04315	-86.173	1.00087	-0.94	1.00087	-0.94	0.04315	-86.173
950	0.03892	-86.834	0.99852	-1.065	0.99852	-1.065	0.03892	-86.834
1000	0.03722	-89.501	1.00245	-1.287	1.00245	-1.287	0.03722	-89.501
1050	0.03595	-84.975	1.00042	-1.668	1.00042	-1.668	0.03595	-84.975
1100	0.03094	-85.003	1.00033	-2.042	1.00033	-2.042	0.03094	-85.003
1150	0.03055	-93.229	1.00021	-2.322	1.00021	-2.322	0.03055	-93.229
1200	0.03201	-91.304	0.99943	-2.429	0.99943	-2.429	0.03201	-91.304
1250	0.03196	-83.662	0.99852	-2.742	0.99852	-2.742	0.03196	-83.662
1300	0.02734	-79.301	0.998	-3.059	0.998	-3.059	0.02734	-79.301
1350	0.02426	-88.009	1.00083	-3.26	1.00083	-3.26	0.02426	-88.009
1400	0.02489	-90.075	0.9963	-3.927	0.9963	-3.927	0.02489	-90.075
1450	0.02524	-86.909	0.99923	-3.767	0.99923	-3.767	0.02524	-86.909
1500	0.02316	-82.244	0.9991	-3.786	0.9991	-3.786	0.02316	-82.244
1550	0.01996	-87.306	1.00069	-4.187	1.00069	-4.187	0.01996	-87.306
1600	0.01976	-85.365	0.99914	-4.495	0.99914	-4.495	0.01976	-85.365
1650	0.01802	-77.064	0.99905	-4.692	0.99905	-4.692	0.01802	-77.064
1700	0.01459	-73.877	0.99917	-5.041	0.99917	-5.041	0.01459	-73.877
1750	0.01005	-83.034	0.99892	-5.176	0.99892	-5.176	0.01005	-83.034
1800	0.00971	-88.782	0.99875	-5.434	0.99875	-5.434	0.00971	-88.782
1850	0.00838	-73.091	0.99746	-5.775	0.99746	-5.775	0.00838	-73.091
1900	0.00626	-73.459	0.9984	-6.055	0.9984	-6.055	0.00626	-73.459
1950	0.00372	-63.845	1.00178	-6.252	1.00178	-6.252	0.00372	-63.845
2000	0.00346	-31.897	0.99835	-6.616	0.99835	-6.616	0.00346	-31.897
2050	0.00608	20.561	0.99809	-7.009	0.99809	-7.009	0.00608	20.561
2100	0.00885	51.659	0.99138	-7.304	0.99138	-7.304	0.00885	51.659
2150	0.01601	56.317	0.99381	-7.85	0.99381	-7.85	0.01601	56.317
2200	0.0303	55.668	0.98184	-8.696	0.98184	-8.696	0.0303	55.668
2250	0.0646	42.494	0.9591	-10.118	0.9591	-10.118	0.0646	42.494
2300	0.10458	-19.321	0.89732	-5.739	0.89732	-5.739	0.10458	-19.321
2350	0.05831	-62.326	0.96865	-4.979	0.96865	-4.979	0.05831	-62.326
2400	0.03485	-68.887	0.98445	-6.029	0.98445	-6.029	0.03485	-68.887
2450	0.02424	-70.254	0.99118	-6.765	0.99118	-6.765	0.02424	-70.254
2500	0.01678	-69.045	0.99524	-6.957	0.99524	-6.957	0.01678	-69.045
2550	0.01218	-65.872	0.9921	-7.085	0.9921	-7.085	0.01218	-65.872
2600	0.0077	-49.712	0.99465	-7.801	0.99465	-7.801	0.0077	-49.712
2650	0.00506	-37.49	0.99427	-8.003	0.99427	-8.003	0.00506	-37.49
2700	0.00275	-6.3	0.9972	-8.502	0.9972	-8.502	0.00275	-6.3
2750	0.00271	28.421	0.99524	-8.686	0.99524	-8.686	0.00271	28.421
2800	0.00482	29.161	0.99153	-8.915	0.99153	-8.915	0.00482	29.161
2850	0.00694	39.383	0.99866	-9.189	0.99866	-9.189	0.00694	39.383
2900	0.00916	59.741	0.99604	-9.313	0.99604	-9.313	0.00916	59.741
2950	0.01004	73.814	0.99339	-9.803	0.99339	-9.803	0.01004	73.814
3000	0.0097	62.17	0.99593	-9.66	0.99593	-9.66	0.0097	62.17
3050	0.01215	62.948	0.9912	-10.204	0.9912	-10.204	0.01215	62.948
3100	0.0138	67.69	0.99524	-10.868	0.99524	-10.868	0.0138	67.69
3150	0.01419	67.612	0.99028	-10.655	0.99028	-10.655	0.01419	67.612
3200	0.01642	53.419	0.9879	-11.063	0.9879	-11.063	0.01642	53.419
3250	0.0217	58.943	0.98732	-11.267	0.98732	-11.267	0.0217	58.943
3300	0.02446	66.763	0.98828	-11.577	0.98828	-11.577	0.02446	66.763
3350	0.02667	65.323	0.98876	-12.092	0.98876	-12.092	0.02667	65.323
3400	0.03195	61.544	0.98544	-12.315	0.98544	-12.315	0.03195	61.544
3450	0.03935	64.252	0.98163	-12.562	0.98163	-12.562	0.03935	64.252
3500	0.04279	65.814	0.98274	-13.228	0.98274	-13.228	0.04279	65.814
3550	0.05158	57.904	0.97393	-14.036	0.97393	-14.036	0.05158	57.904
3600	0.06861	53.669	0.9728	-14.795	0.9728	-14.795	0.06861	53.669
3650	0.08819	50.201	0.95125	-15.588	0.95125	-15.588	0.08819	50.201
3700	0.11542	37.437	0.91951	-16.791	0.91951	-16.791	0.11542	37.437
3750	0.1588	11.462	0.84914	-15.697	0.84914	-15.697	0.1588	11.462
3800	0.16428	-24.508	0.83513	-9.023	0.83513	-9.023	0.16428	-24.508
3850	0.12151	-52.871	0.90208	-6.757	0.90208	-6.757	0.12151	-52.871
3900	0.086	-69.498	0.9449	-7.798	0.9449	-7.798	0.086	-69.498
3950	0.06641	-78.005	0.96428	-8.879	0.96428	-8.879	0.06641	-78.005
4000	0.05195	-82.446	0.9733	-9.744	0.9733	-9.744	0.05195	-82.446
4050	0.04139	-88.685	0.97936	-10.581	0.97936	-10.581	0.04139	-88.685
4100	0.03391	-95.801	0.97951	-10.571	0.97951	-10.571	0.03391	-95.801
4150	0.03219	-101.789	0.98153	-11.073	0.98153	-11.073	0.03219	-101.789
4200	0.0296	-99.032	0.98497	-11.568	0.98497	-11.568	0.0296	-99.032
4250	0.02521	-101.168	0.98485	-11.691	0.98485	-11.691	0.02521	-101.168
4300	0.02184	-111.186	0.98533	-12.467	0.98533	-12.467	0.02184	-111.186
4350	0.02355	-115.309	0.98088	-12.439	0.98088	-12.439	0.02355	-115.309
4400	0.0239	-109.84	0.98503	-12.811	0.98503	-12.811	0.0239	-109.84
4450	0.02122	-112.605	0.98479	-13.137	0.98479	-13.137	0.02122	-112.605
4500	0.02113	-117.474	0.98682	-13.49	0.98682	-13.49	0.02113	-117.474
4550	0.02315	-117.556	0.98494	-13.77	0.98494	-13.77	0.02315	-117.556
4600	0.02325	-111.74	0.98265	-13.964	0.98265	-13.964	0.02325	-111.74
4650	0.02031	-114.979	0.98509	-14.15	0.98509	-14.15	0.02031	-114.979
4700	0.02178	-121.559	0.98766	-14.542	0.98766	-14.542	0.02178	-121.559
4750	0.0238	-119.394	0.98599	-14.618	0.98599	-14.618	0.0238	-119.394
4800	0.0241	-112.589	0.9862	-14.908	0.9862	-14.908	0.0241	-112.589
4850	0.02036	-114.003	0.9858	-14.981	0.9858	-14.981	0.02036	-114.003
4900	0.01993	-120.791	0.98398	-15.423	0.98398	-15.423	0.01993	-120.791
4950	0.02065	-123.558	0.99546	-15.657	0.99546	-15.657	0.02065	-123.558
5000	0.02063	-122.462	0.98375	-16.024	0.98375	-16.024	0.02063	-122.462
5050	0.0178	-122.581	0.98107	-16.17	0.98107	-16.17	0.0178	-122.581
5100	0.01748	-129.105	0.98249	-16.51	0.98249	-16.51	0.01748	-129.105
5150	0.01766	-123.313	0.98197	-16.885	0.98197	-16.885	0.01766	-123.313
5200	0.01559	-116.698	0.98102	-16.941	0.98102	-16.941	0.01559	-116.698
5250	0.01129	-102.635	0.97848	-17.332	0.97848	-17.332	0.01129	-102.635
5300	0.01053	-77.856	0.96903	-17.395	0.96903	-17.395	0.01053	-77.856
5350	0.02136	-58.782	0.95707	-17.662	0.95707	-17.662	0.02136	-58.782
5400	0.0382	-64.191	0.95161	-17.616	0.95161	-17.616	0.0382	-64.191
5450	0.04833	-79.768	0.95613	-16.789	0.95613	-16.789	0.04833	-79.768
5500	0.04868	-88.808	0.96807	-16.718	0.96807	-16.718	0.04868	-88.808
5550	0.04592	-95.126	0.97036	-16.867	0.97036	-16.867	0.04592	-95.126
5600	0.04301	-100.961	0.97121	-17.414	0.97121	-17.414	0.04301	-100.961
5650	0.04299	-105.147	0.97608	-17.963	0.97608	-17.963	0.04299	-105.147
5700	0.0435	-104.397	0.97506	-18.005	0.97506	-18.005	0.0435	-104.397
5750	0.04377	-103.403	0.9732	-18.167	0.9732	-18.167	0.04377	-103.403
5800	0.04272	-100.737	0.97654	-18.61	0.97654	-18.61	0.04272	-100.737
5850	0.04089	-95.487	0.97234	-18.971	0.97234	-18.971	0.04089	-95.487
5900	0.03447	-89.889	0.97474	-19.111	0.97474	-19.111	0.03447	-89.889
5950	0.02839	-98.723	0.97859	-19.409	0.97859	-19.409	0.02839	-98.723
6000	0.03511	-117.62	0.97303	-19.54	0.97303	-19.54	0.03511	-117.62
6050	0.03546	-113.732	0.96697	-20.015	0.96697	-20.015	0.03546	-113.732
6100	0.03198	-109.933	0.97397	-20.366	0.97397	-20.366	0.03198	-109.933
6150	0.0291	-110.938	0.97104	-20.576	0.97104	-20.576	0.0291	-110.938
6200	0.02891	-110.906	0.9646	-20.697	0.9646	-20.697	0.02891	-110.906
6250	0.02662	-107.22	0.96804	-21.235	0.96804	-21.235	0.02662	-107.22
6300	0.02407	-105.117	0.96641	-21.391	0.96641	-21.391	0.02407	-105.117
6350	0.02301	-106.782	0.96655	-21.535	0.96655	-21.535	0.02301	-106.782
6400	0.02381	-100.97	0.96168	-22.114	0.96168	-22.114	0.02381	-100.97
6450	0.02182	-85.136	0.9614	-22.363	0.9614	-22.363	0.02182	-85.136
6500	0.02017	-70.38	0.95399	-22.822	0.95399	-22.822	0.02017	-70.38
6550	0.01955	-51.993	0.95483	-23.097	0.95483	-23.097	0.01955	-51.993
6600	0.0211	-34.204	0.9513	-23.42	0.9513	-23.42	0.0211	-34.204
6650	0.02849	-22.432	0.9442	-24.117	0.9442	-24.117	0.02849	-22.432
6700	0.04041	-12.862	0.93645	-24.327	0.93645	-24.327	0.04041	-12.862
6750	0.0567	-5.945	0.92276	-24.969	0.92276	-24.969	0.0567	-5.945
6800	0.0764	-5.838	0.90443	-25.681	0.90443	-25.681	0.0764	-5.838
6850	0.10537	-12.531	0.88027	-25.379	0.88027	-25.379	0.10537	-12.531
6900	0.13274	-21.922	0.85161	-23.894	0.85161	-23.894	0.13274	-21.922
6950	0.14094	-36.495	0.84381	-21.909	0.84381	-21.909	0.14094	-36.495
7000	0.13563	-50.373	0.86377	-19.87	0.86377	-19.87	0.13563	-50.373
7050	0.12539	-59.705	0.8866	-19.576	0.8866	-19.576	0.12539	-59.705
7100	0.11263	-61.864	0.90217	-19.918	0.90217	-19.918	0.11263	-61.864
7150	0.09665	-63.396	0.90915	-20.27	0.90915	-20.27	0.09665	-63.396
7200	0.08882	-62.822	0.91822	-21.052	0.91822	-21.052	0.08882	-62.822
7250	0.08122	-59.592	0.91944	-20.921	0.91944	-20.921	0.08122	-59.592
7300	0.07518	-57.028	0.92177	-21.986	0.92177	-21.986	0.07518	-57.028
7350	0.07099	-54.917	0.92221	-22.018	0.92221	-22.018	0.07099	-54.917
7400	0.06964	-50.396	0.91838	-22.489	0.91838	-22.489	0.06964	-50.396
7450	0.06874	-46.833	0.92198	-22.598	0.92198	-22.598	0.06874	-46.833
7500	0.06958	-45.424	0.91888	-22.874	0.91888	-22.874	0.06958	-45.424
7550	0.0713	-41.584	0.91652	-22.765	0.91652	-22.765	0.0713	-41.584
7600	0.07226	-39.714	0.91321	-23.206	0.91321	-23.206	0.07226	-39.714
7650	0.07352	-37.436	0.90991	-23.418	0.90991	-23.418	0.07352	-37.436
7700	0.07751	-35.998	0.90952	-23.362	0.90952	-23.362	0.07751	-35.998
7750	0.08121	-33.042	0.90707	-23.605	0.90707	-23.605	0.08121	-33.042
7800	0.08225	-31.617	0.90405	-23.894	0.90405	-23.894	0.08225	-31.617
7850	0.08244	-31.143	0.90137	-23.936	0.90137	-23.936	0.08244	-31.143
7900	0.08629	-31.077	0.89152	-23.206	0.89152	-23.206	0.08629	-31.077
7950	0.08946	-28.69	0.89943	-23.907	0.89943	-23.907	0.08946	-28.69
8000	0.08982	-29.313	0.89758	-23.885	0.89758	-23.885	0.08982	-29.313
8050	0.09634	-29.049	0.90053	-23.738	0.90053	-23.738	0.09634	-29.049
8100	0.09842	-25.327	0.89584	-23.764	0.89584	-23.764	0.09842	-25.327
8150	0.09735	-23.73	0.89283	-23.99	0.89283	-23.99	0.09735	-23.73
8200	0.09572	-23.726	0.89531	-23.962	0.89531	-23.962	0.09572	-23.726
8250	0.10087	-23.975	0.89017	-23.783	0.89017	-23.783	0.10087	-23.975
8300	0.10331	-21.017	0.89268	-24.046	0.89268	-24.046	0.10331	-21.017
8350	0.1009	-18.086	0.89062	-24.363	0.89062	-24.363	0.1009	-18.086
8400	0.10073	-17.648	0.88778	-24.148	0.88778	-24.148	0.10073	-17.648
8450	0.1047	-17.812	0.8876	-24.084	0.8876	-24.084	0.1047	-17.812
8500	0.11039	-17.06	0.87771	-23.606	0.87771	-23.606	0.11039	-17.06
8550	0.11284	-20.153	0.87573	-23.534	0.87573	-23.534	0.11284	-20.153
8600	0.11482	-24.11	0.87871	-23.014	0.87871	-23.014	0.11482	-24.11
8650	0.10967	-28.202	0.88432	-22.56	0.88432	-22.56	0.10967	-28.202
8700	0.10306	-29.478	0.89545	-22.687	0.89545	-22.687	0.10306	-29.478
8750	0.09454	-29.377	0.89947	-22.47	0.89947	-22.47	0.09454	-29.377
8800	0.08978	-28.762	0.89947	-22.47	0.89947	-22.47	0.08978	-28.762
8850	0.08408	-28.009	0.90777	-22.823	0.90777	-22.823	0.08408	-28.009
8900	0.08162	-26.861	0.91297	-23.079	0.91297	-23.079	0.08162	-26.861
8950	0.07964	-24.43	0.91757	-23.304	0.91757	-23.304	0.07964	-24.43
9000	0.07941	-22.116	0.91922	-23.76	0.91922	-23.76	0.07941	-22.116
9050	0.0775	-17.515	0.92118	-23.603	0.92118	-23.603	0.0775	-17.515
9100	0.07596	-13.849	0.92535	-24.035	0.92535	-24.035	0.07596	-13.849
9150	0.07305	-9.923	0.9235	-23.86	0.9235	-23.86	0.07305	-9.923
9200	0.07269	-7.684	0.92541	-24.398	0.92541	-24.398	0.07269	-7.684
9250	0.07075	-1.953	0.93037	-24.938	0.93037	-24.938	0.07075	-1.953
9300	0.06337	0.576	0.9299	-24.827	0.9299	-24.827	0.06337	0.576
9350	0.06435	-2.956	0.9315	-24.864	0.9315	-24.864	0.06435	-2.956
9400	0.07523	-1.069	0.93429	-25.428	0.93429	-25.428	0.07523	-1.069
9450	0.08237	9.204	0.93479	-25.834	0.93479	-25.834	0.08237	9.204
9500	0.07885	17.522	0.93336	-25.752	0.93336	-25.752	0.07885	17.522
9550	0.07654	19.625	0.93313	-26.261	0.93313	-26.261	0.07654	19.625
9600	0.07814	22.907	0.93459	-26.859	0.93459	-26.859	0.07814	22.907
9650	0.07655	26.358	0.93401	-26.684	0.93401	-26.684	0.07655	26.358
9700	0.07378	24.734	0.92682	-27.149	0.92682	-27.149	0.07378	24.734
9750	0.08264	18.627	0.93184	-27.938	0.93184	-27.938	0.08264	18.627
9800	0.0924	21.126	0.92625	-27.524	0.92625	-27.524	0.0924	21.126
9850	0.09933	20.361	0.92081	-28.415	0.92081	-28.415	0.09933	20.361
9900	0.10809	17.652	0.91647	-28.705	0.91647	-28.705	0.10809	17.652
9950	0.11548	14.587	0.90289	-28.802	0.90289	-28.802	0.11548	14.587
10000	0.1196	7.787	0.88485	-28.372	0.88485	-28.372	0.1196	7.787
10050	0.1219	-2.945	0.87928	-27.486	0.87928	-27.486	0.1219	-2.945
10100	0.11914	-12.6	0.87476	-26.413	0.87476	-26.413	0.11914	-12.6
10150	0.10047	-19.956	0.88464	-25.116	0.88464	-25.116	0.10047	-19.956
10200	0.08339	-27.214	0.89649	-24.736	0.89649	-24.736	0.08339	-27.214
10250	0.07665	-29.996	0.91518	-24.864	0.91518	-24.864	0.07665	-29.996
10300	0.06648	-24.106	0.92462	-25.572	0.92462	-25.572	0.06648	-24.106
10350	0.05363	-18.853	0.93459	-25.865	0.93459	-25.865	0.05363	-18.853
10400	0.05022	-21.829	0.9332	-26.315	0.9332	-26.315	0.05022	-21.829
10450	0.05181	-13.568	0.94019	-26.53	0.94019	-26.53	0.05181	-13.568
10500	0.04856	-3.269	0.94758	-27.04	0.94758	-27.04	0.04856	-3.269
10550	0.04163	-1.307	0.94868	-27.404	0.94868	-27.404	0.04163	-1.307
10600	0.04592	-5.42	0.94406	-27.826	0.94406	-27.826	0.04592	-5.42
10650	0.04182	11.119	0.94722	-28.193	0.94722	-28.193	0.04182	11.119
10700	0.03374	16.972	0.94611	-28.275	0.94611	-28.275	0.03374	16.972
10750	0.02909	5.402	0.94913	-28.431	0.94913	-28.431	0.02909	5.402
10800	0.03416	8.449	0.94801	-28.865	0.94801	-28.865	0.03416	8.449
10850	0.02904	22.307	0.94623	-29.063	0.94623	-29.063	0.02904	22.307
10900	0.01971	15.386	0.95514	-29.301	0.95514	-29.301	0.01971	15.386
10950	0.02154	-5.949	0.95	-29.797	0.95	-29.797	0.02154	-5.949
11000	0.02512	3.939	0.9484	-30.035	0.9484	-30.035	0.02512	3.939
11050	0.01813	7.063	0.94523	-30.268	0.94523	-30.268	0.01813	7.063
11100	0.01136	4.344	0.94612	-30.85	0.94612	-30.85	0.01136	4.344
11150	0.0122	-31.756	0.94943	-30.53	0.94943	-30.53	0.0122	-31.756
11200	0.01848	-38.326	0.94423	-30.979	0.94423	-30.979	0.01848	-38.326
11250	0.01956	-29.998	0.944	-31.382	0.944	-31.382	0.01956	-29.998
11300	0.01728	-22.315	0.94423	-31.649	0.94423	-31.649	0.01728	-22.315
11350	0.01254	-19.283	0.94206	-32.111	0.94206	-32.111	0.01254	-19.283
11400	0.01304	-38.73	0.94226	-32.117	0.94226	-32.117	0.01304	-38.73
11450	0.01472	-40.653	0.93137	-32.576	0.93137	-32.576	0.01472	-40.653
11500	0.01446	-35.219	0.93546	-32.651	0.93546	-32.651	0.01446	-35.219
11550	0.01451	-46.768	0.93876	-32.947	0.93876	-32.947	0.01451	-46.768
11600	0.02042	-43.319	0.92805	-33.215	0.92805	-33.215	0.02042	-43.319
11650	0.02322	-31.069	0.92715	-33.095	0.92715	-33.095	0.02322	-31.069
11700	0.0185	-40.169	0.91589	-33.119	0.91589	-33.119	0.0185	-40.169
11750	0.02154	-85.214	0.91333	-32.918	0.91333	-32.918	0.02154	-85.214
11800	0.03404	-99.149	0.91798	-32.862	0.91798	-32.862	0.03404	-99.149
11850	0.03573	-107.547	0.92096	-32.862	0.92096	-32.862	0.03573	-107.547
11900	0.03951	-119.634	0.92579	-33.25	0.92579	-33.25	0.03951	-119.634
11950	0.04182	-125.922	0.92635	-33.053	0.92635	-33.053	0.04182	-125.922
12000	0.04253	-133.403	0.93032	-33.305	0.93032	-33.305	0.04253	-133.403
12050	0.04364	-139.075	0.92894	-33.738	0.92894	-33.738	0.04364	-139.075
12100	0.05019	-141.489	0.92092	-34.196	0.92092	-34.196	0.05019	-141.489
12150	0.04957	-144.039	0.92345	-34.261	0.92345	-34.261	0.04957	-144.039
12200	0.05152	-149.235	0.92537	-34.489	0.92537	-34.489	0.05152	-149.235
12250	0.05507	-148.772	0.92123	-34.53	0.92123	-34.53	0.05507	-148.772
12300	0.05306	-149.009	0.92214	-34.997	0.92214	-34.997	0.05306	-149.009
12350	0.05303	-153.005	0.9172	-34.564	0.9172	-34.564	0.05303	-153.005
12400	0.05652	-155.971	0.91687	-35.297	0.91687	-35.297	0.05652	-155.971
12450	0.05998	-151.947	0.91405	-35.336	0.91405	-35.336	0.05998	-151.947
12500	0.05564	-148.143	0.91386	-35.628	0.91386	-35.628	0.05564	-148.143
12550	0.04994	-146.411	0.90959	-35.893	0.90959	-35.893	0.04994	-146.411
12600	0.04191	-150.203	0.91306	-36.007	0.91306	-36.007	0.04191	-150.203
12650	0.03933	-160.684	0.91343	-36.182	0.91343	-36.182	0.03933	-160.684
12700	0.03967	-162.889	0.91148	-36.219	0.91148	-36.219	0.03967	-162.889
12750	0.0384	-157.027	0.90797	-36.509	0.90797	-36.509	0.0384	-157.027
12800	0.02976	-157.496	0.9054	-36.762	0.9054	-36.762	0.02976	-157.496
12850	0.02418	-165.527	0.90535	-36.851	0.90535	-36.851	0.02418	-165.527
12900	0.02138	-152.161	0.90155	-37.207	0.90155	-37.207	0.02138	-152.161
12950	0.01001	-123.249	0.89791	-37.629	0.89791	-37.629	0.01001	-123.249
13000	0.00898	2.979	0.89401	-37.862	0.89401	-37.862	0.00898	2.979
13050	0.01636	14.809	0.88816	-38.076	0.88816	-38.076	0.01636	14.809
13100	0.02426	0.065	0.87713	-38.354	0.87713	-38.354	0.02426	0.065
13150	0.03856	-11.268	0.86715	-38.702	0.86715	-38.702	0.03856	-11.268
13200	0.05413	-25.864	0.85326	-38.214	0.85326	-38.214	0.05413	-25.864
13250	0.07313	-40.398	0.83823	-37.198	0.83823	-37.198	0.07313	-40.398
13300	0.08507	-52.345	0.83577	-35.553	0.83577	-35.553	0.08507	-52.345
13350	0.08383	-63.103	0.84576	-34.324	0.84576	-34.324	0.08383	-63.103
13400	0.07913	-76.194	0.8571	-33.441	0.8571	-33.441	0.07913	-76.194
13450	0.07497	-85.166	0.87666	-33.495	0.87666	-33.495	0.07497	-85.166
13500	0.06883	-93.308	0.89076	-34.029	0.89076	-34.029	0.06883	-93.308
13550	0.06153	-92.459	0.89869	-34.072	0.89869	-34.072	0.06153	-92.459
13600	0.05394	-86.158	0.90577	-33.8	0.90577	-33.8	0.05394	-86.158
13650	0.03981	-80.938	0.9099	-34.767	0.9099	-34.767	0.03981	-80.938
13700	0.02736	-75.827	0.91724	-35.055	0.91724	-35.055	0.02736	-75.827
13750	0.02144	-70.398	0.9188	-35.18	0.9188	-35.18	0.02144	-70.398
13800	0.02206	-55.931	0.92104	-35.869	0.92104	-35.869	0.02206	-55.931
13850	0.02412	-31.349	0.92428	-36.389	0.92428	-36.389	0.02412	-31.349
13900	0.03077	-4.22	0.92631	-36.193	0.92631	-36.193	0.03077	-4.22
13950	0.03398	4.643	0.93392	-36.733	0.93392	-36.733	0.03398	4.643
14000	0.04234	9.413	0.93136	-37.097	0.93136	-37.097	0.04234	9.413
14050	0.05222	14.871	0.92958	-37.419	0.92958	-37.419	0.05222	14.871
14100	0.06216	15.258	0.9422	-38.033	0.9422	-38.033	0.06216	15.258
14150	0.066	18.608	0.93901	-38.129	0.93901	-38.129	0.066	18.608
14200	0.07945	19.2	0.92815	-38.645	0.92815	-38.645	0.07945	19.2
14250	0.09034	20.743	0.93664	-38.839	0.93664	-38.839	0.09034	20.743
14300	0.10476	22.855	0.93742	-39.568	0.93742	-39.568	0.10476	22.855
14350	0.10809	20.084	0.9358	-39.765	0.9358	-39.765	0.10809	20.084
14400	0.12198	19.77	0.94225	-40.351	0.94225	-40.351	0.12198	19.77
14450	0.13459	21.775	0.93939	-40.321	0.93939	-40.321	0.13459	21.775
14500	0.14244	21.819	0.92964	-41.149	0.92964	-41.149	0.14244	21.819
